# 任务36：AMBA总线介绍5

## 本章知识全景图

这一讲把 AHB 仲裁从“有哪些信号”推进到“总线所有权到底在哪一拍切换”。`HGRANT` 不是抢到总线的全部条件，`HREADY` 才是切换边界；旧 master 失去 grant 后仍可能完成最后一个数据阶段，新 master 拿到 grant 后也要等流水线边界才能开始驱动地址和控制。

| 层级 | 核心概念 | 本章要形成的判断 | 连接到前端交付 |
|---|---|---|---|
| 仲裁请求 | `HBUSREQx`、`HLOCKx` | master 通过请求和锁定意图参与仲裁 | 多 master 接口、burst/lock 策略 |
| 仲裁授权 | `HGRANTx`、`HMASTER`、`HMASTLOCK` | grant 告诉 master 是否被选中，`HMASTER` 选择系统总线上的有效 master | master mux、地址/控制选择 |
| 切换边界 | `HREADY`、`HREADYIN`、`HREADYOUT` | 只有 `HREADY=1` 的采样边界才允许总线推进 | slave 接口使能、wait state |
| 流水线交接 | 地址阶段、数据阶段 | 交接时地址所有权和数据所有权可能属于不同 master | 波形验收、数据相位对齐 |
| SPLIT 恢复 | `HRESP=SPLIT`、`HSPLITx` | slave 要告诉 arbiter 哪个 master 可以恢复参与仲裁 | 长等待 slave、优先级恢复 |
| 接口框图 | master/slave/arbiter/decoder | AHB 不是一根线，而是一组按角色分发的协议信号 | 顶层集成、端口检查表 |

最短学习路径：

```text
master 发 HBUSREQx/HLOCKx
  -> arbiter 计算 HGRANTx/HMASTER/HMASTLOCK
  -> HGRANTx 与 HREADY 同时满足，master 才真正接管
  -> HREADYIN/HREADYOUT 让所有 slave 服从同一个流水线节拍
  -> 总线移交时旧 master 完成最后一个数据阶段，新 master 从下一地址阶段开始
  -> SPLIT 由 slave 记录 master 编号，再通过 HSPLITx 恢复仲裁资格
```

## 1. 仲裁信号分成三类：请求、授权、恢复

AHB 仲裁器不是只看一根 request 线，它同时处理“谁想用总线”“谁需要锁住总线”“谁因为 SPLIT 暂时不能用总线”“当前总线应该由谁驱动”。把信号按角色分开，后面的波形才不会乱。

![仲裁信号总览](<./screenshots/任务036_AMBA总线介绍5/task36_00_arbiter_signals_00m25s.jpg>)

视觉核验/看图要点/漏看后果：00:25-00:40，这张图的教学职责是把仲裁信号按角色分层。先看 `HBUSREQx/HLOCKx` 来自 master，再看 `HGRANTx/HMASTER/HMASTLOCK` 来自 arbiter，最后看 `HSPLITx` 来自 slave 并反馈给 arbiter。漏看方向，就会把请求、授权、恢复资格写成互相缠绕的一团，后面读总线移交波形必然错位。

常用信号的工程含义：

| 信号 | 方向 | 判断口径 |
|---|---|---|
| `HBUSREQx` | master -> arbiter | 第 x 个 master 请求使用总线 |
| `HLOCKx` | master -> arbiter | 第 x 个 master 希望当前传输序列不要被中途打断 |
| `HGRANTx` | arbiter -> master | arbiter 决定可以把总线授给第 x 个 master |
| `HMASTER[3:0]` | arbiter -> system | 当前被系统视为有效的 master 编号，4 bit 最多表达 16 个 master |
| `HMASTLOCK` | arbiter -> system | 当前有效 master 的传输属于锁定序列 |
| `HSPLITx[15:0]` | slave -> arbiter | 第 x 个 slave 告诉 arbiter：哪些 master 的 SPLIT 资格可以恢复 |

`HSPLITx[15:0]` 最容易读错。这里的 `x` 是 slave 编号，`[15:0]` 是 master 位图。比如 `HSPLIT2[1]=1` 的含义不是“slave2 请求 master1”，而是“slave2 表示 master1 之前被 split 的访问现在可以恢复”。slave 之所以要报 master 编号，是因为真正知道“这次是谁来访问我”的一方就是被访问的 slave；在总线交接、流水线重叠或多个 master 轮流访问同一个 slave 时，只靠 arbiter 的当前 grant 反推可能不够稳。

## 2. `HGRANT=1` 只是许可，`HREADY=1` 才是边界

master 真正接管总线的条件是 `HGRANTx=1 && HREADY=1`。`HGRANT` 表示 arbiter 的选择，`HREADY` 表示上一笔传输已经允许流水线前进；缺少后者，master 即使已经被 grant，也不能立刻换地址、换控制信号。

![HGRANT 与 HREADY](<./screenshots/任务036_AMBA总线介绍5/task36_01_hgrant_hready_06m20s.jpg>)

视觉核验/看图要点/漏看后果：06:20-06:35，这张图的教学职责是纠正“grant 一拉高就换 master”的误解。看波形时先找 `HGRANTx` 何时拉高，再找同一个采样边界上 `HREADY` 是否为高。只有两者同时成立，后续地址/控制阶段才属于新的 master。漏看这一点，仲裁状态机会在旧 transfer 未完成时切换地址 mux。

从 slave 角度看，`HREADY` 又分成两层：

```text
HREADYOUT：本 slave 对当前访问给出的完成/等待意见
HREADYIN ：总线汇总后的全局 ready，告诉本 slave 其他传输是否已经允许推进
```

如果系统中任何一个正在产生有效响应的 slave 把 `HREADYOUT` 拉低，汇总后的 `HREADY` 就会低，所有 master 和 slave 都要停在当前有效阶段。对一个 AHB slave IP 来说，`HREADYIN` 不是装饰信号；它应该进入内部使能条件。只有在 `HREADYIN=1` 且本 slave 被 `HSEL` 选中、`HTRANS` 有效时，才应该采样新地址和控制。

可以把 slave 接口的有效条件写成：

```systemverilog
valid_ahb_access = hsel && hreadyin && htrans[1];
```

其中 `htrans[1]` 用来排除 `IDLE/BUSY`，保留 `NONSEQ/SEQ`。这不是唯一写法，但它表达了一个关键约束：如果全局 `HREADYIN` 没有放行，本 slave 不能把总线上的新值当作新事务。

可以把 `HGRANT` 理解成“下一位候选人”，把 `HREADY` 理解成“交接口已经空出来”。候选人已经被选中，不代表当前窗口已经空；AHB 把这个边界做成 `HREADY`，就是为了让仲裁和 transfer 完成点不互相踩踏。

## 3. 无等待授权：grant 后下一拍开始地址阶段

无等待状态下，`HREADY` 一直为高，仲裁看起来最直观：master 拉起 `HBUSREQx`，arbiter 延迟若干拍后拉起 `HGRANTx`，在采样到 grant 的边界之后，master 开始驱动地址和控制。

![无等待授权波形](<./screenshots/任务036_AMBA总线介绍5/task36_02_no_wait_grant_13m20s.jpg>)

视觉核验/看图要点/漏看后果：13:20-13:35，这张图的教学职责是补齐一次 transfer 前面的仲裁前奏。先找 `HBUSREQx`，再找 `HGRANTx && HREADY` 的采样边界，之后才读地址阶段和数据阶段。漏看前奏，会把一次 AHB transfer 只理解成 `HADDR/HWDATA` 的局部动作，看不到 master 为什么有资格驱动总线。

文字替代波形如下：

```text
T0: master_x 拉高 HBUSREQx
T1/T2: arbiter 根据多个请求和优先级做决策
T3: HGRANTx=1，且 HREADY=1
T4: master_x 开始驱动 HADDR/HTRANS/HWRITE/HSIZE/HBURST
T5: 对应数据阶段出现，读写数据按 AHB 流水线推进
```

这里容易误判的点是“grant 拉高”与“地址已经有效”之间隔着采样边界。组合电路当然可能在同一拍看到某些变化，但协议验收要按时钟边界判断：master 在看到自己被授权后，才在后续有效边界驱动下一笔地址和控制。

## 4. 有等待授权：grant 早到也不能绕过 `HREADY`

如果 `HREADY=0`，说明当前数据阶段还没被 slave 接收或完成。此时新 master 即使已经拿到 `HGRANT`，也必须等。总线不能因为仲裁器做出了新选择，就把上一笔没完成的访问切断。

![有等待授权波形](<./screenshots/任务036_AMBA总线介绍5/task36_03_wait_grant_15m45s.jpg>)

视觉核验/看图要点/漏看后果：15:45-16:00，这张图的教学职责是把等待分成“授权等待”和“传输等待”。第一类是 grant 已经给出但 `HREADY=0`，新 master 仍不能接管；第二类是地址已经放上总线后，slave 又通过 `HREADY=0` 要求地址/控制保持。漏看这两类等待，就会把所有 stall 都粗暴归因于 slave，忽略 arbiter 已经提前算出下一任 master 的情况。

可以按两段读这张波形：

```text
授权等待：
HBUSREQx 已发出
  -> HGRANTx 拉高
  -> 但 HREADY=0
  -> master_x 继续等待，不驱动新事务

传输等待：
master_x 已开始地址阶段
  -> slave 拉低 HREADY
  -> 当前 HADDR/HTRANS/HWRITE/HSIZE 保持
  -> 等 HREADY 回到 1，下一地址阶段才推进
```

对 RTL 来说，这就是所有 AHB 地址相位寄存器都要受 `HREADY` 约束的原因。`HREADY=0` 时如果提前更新地址、写使能、byte enable 或内部状态机，就会制造一个很隐蔽的 bug：波形上地址变了，但 slave 并没有承认上一拍完成，后续数据相位会错位。

## 5. 总线移交时，地址所有权先换，数据所有权后换

AHB 的流水线让总线移交不是“一刀切”。当 arbiter 从 M1 切到 M2 时，M2 可以在新的地址阶段开始驱动地址；但同一拍的数据阶段可能仍属于 M1 的上一笔访问。旧 master 失去 grant 后还能完成最后一个数据阶段，这是流水线的自然结果，不是协议漏洞。

![总线从 M1 移交到 M2](<./screenshots/任务036_AMBA总线介绍5/task36_04_bus_handover_18m54s.jpg>)

视觉核验/看图要点/漏看后果：18:54-19:09，这张图的教学职责是让你分开读地址所有权和数据所有权。先看 `HGRANTM1/HGRANTM2` 的切换，再看 `HREADY` 的有效边界，最后分开读地址阶段和数据阶段：M2 的地址可以出现时，M1 的最后数据仍可能在总线上完成。漏看这一拍错位，会把“旧 master 的最后数据阶段”误判成“旧 master 又抢回了总线”。

最容易把人绕住的是下面这条链：

```text
Tn: M1 正在做 burst，地址 A+8 已经发出
Tn+1: arbiter 决定下一个 master 给 M2，但 HREADY 还没允许切换
Tn+2: HREADY=1，M2 从下一地址阶段开始驱动地址 B
Tn+2 同拍: 数据阶段仍可能是 M1 的 A+8 或 A+12 数据
Tn+3: M2 的第一笔数据阶段才开始出现
```

这解释了为什么旧 master 在失去 grant 后还可能“看起来又发了一拍”。严格说，旧 master 不是重新抢回总线，而是在完成已经进入流水线的数据阶段。新 master 此时还用不到那一拍的数据通路，它刚开始的是地址阶段。地址相位和数据相位的错拍，使得总线移交可以做到几乎无空泡。

这里的比喻可以是“双轨接力”：地址轨道先交给新 master，数据轨道晚一拍把旧 master 的最后一棒跑完。这个比喻只服务一个判断：读 AHB 移交波形时，不能把同一拍的地址相位和数据相位归给同一个 master。

## 6. `HMASTER` 像 master mux 的选择端

`HGRANTx` 是发给各个 master 的通知，告诉它“你被选中了没有”。但系统总线上真正只能出现一个 master 的地址和控制信号，所以还需要一个选择机制，把多个 master 的本地输出 mux 成一组全局 `HADDR/HTRANS/HWRITE/HSIZE/HBURST`。

课程中把 `HMASTER` 讲成类似 mux select 的东西，这个理解很实用：

```text
master0_haddr --\
master1_haddr ----> mux controlled by HMASTER -> system HADDR -> decoder
master2_haddr --/
```

没有被 grant 的 master 本地信号也可能是某个合法数值，比如地址 `0x0000_0000`。不能因为它“看起来像一个地址”就让 decoder 响应它。只有 `HMASTER` 选择出来的那一路，才是这一拍系统承认的 master 输出。

这也解释了 arbiter 为什么不能只看 request，还要看 `HTRANS/HBURST/HREADY` 等信息：固定长度 burst、未定长 INCR、lock、wait state 都会影响“什么时候可以切走”。如果 arbiter 不知道当前传输是否真的完成，grant 可能在错误边界切换，后果就是地址相位和数据相位错配。

## 7. 固定长度 burst、不定长 INCR 和默认 master

固定长度 burst 的拍数提前可知，master 不一定必须全程保持 `HBUSREQ` 为高。只要 arbiter 已经知道这是一个固定长度序列，它可以维持授权直到序列完成。未定长 `INCR` 不一样，长度不在 `HBURST` 里写死，master 通常要持续请求，直到准备发最后一次有效传输前后释放请求。

判断 burst 是否允许切走，要同时看三件事：`HBURST` 说明长度或不定长，`HTRANS` 说明当前 beat 是 `NONSEQ/SEQ/BUSY/IDLE`，`HREADY` 说明这个 beat 是否真正完成。只看 `HBURST` 会忽略等待周期，只看 `HREADY` 又看不出 burst 边界；仲裁器要把二者合在一起，才能在正确边界撤回 grant。

无请求时，arbiter 仍可能给某个默认 master 一个 grant，但默认 master 必须输出 `HTRANS=IDLE`。原因很简单：地址总线永远有电平，如果没有 `IDLE` 标记，decoder 可能把一个无意义地址当成真实访问。

锁定传输结束后插入 `IDLE` 也是同一个思路。lock 期间 arbiter 被要求不轻易切换，lock 结束后给一拍空闲，有利于重新仲裁，也能让波形上“锁定序列已经结束”的边界更清楚。

## 8. SPLIT 的完整闭环：暂停、降权、恢复

SPLIT 不是单纯让 master “等一下”，它还会影响仲裁器对这个 master 的后续处理。slave 长时间不能响应时，可以返回 `HRESP=SPLIT`，并记录当前访问自己的 `HMASTER` 编号；arbiter 随后降低或移除该 master 的仲裁资格，让其他 master 使用总线。等 slave 准备好了，再通过 `HSPLITx` 对应位告诉 arbiter：这个 master 可以恢复。

![SPLIT 工作流程](<./screenshots/任务036_AMBA总线介绍5/task36_05_split_flow_34m35s.jpg>)

视觉核验/看图要点/漏看后果：34:35-34:50，这张图的教学职责是把 SPLIT 读成一条闭环，而不是一个响应码。先看 slave 拒绝当前长期等待，再看 arbiter 改变该 master 的仲裁资格，最后看 slave 之后用 `HSPLITx` 恢复 master。漏看闭环，就会只在 master 侧处理 `HRESP=SPLIT`，却没有给 arbiter 足够信息恢复被 split 的 master。

闭环可以写成：

```text
M0 访问 S2
  -> S2 暂时无法响应，返回 HRESP=SPLIT
  -> S2 记录 HMASTER=M0
  -> arbiter 暂时不再 grant M0，转而服务 M1/M2/M3
  -> S2 准备好后拉高 HSPLIT2[0]
  -> arbiter 恢复 M0 的仲裁资格
  -> M0 之后重新发起访问
```

为什么让 slave 记录 master，而不是只由 arbiter 自己猜？因为在流水线交接附近，grant、地址阶段、数据阶段可能不属于同一个“直觉上的当前 master”。slave 是最终接收访问的一方，它看到的是本次实际落到自己身上的访问和对应 `HMASTER` 编号，因此由 slave 发出恢复位更可靠。

## 9. AHB 四类接口要一起看

这一讲最后用框图把 master、slave、arbiter、decoder 的信号重新摆了一遍。做 IP 集成时，风险不在于少写一个 always 块，而在于把某根线的角色、驱动端或采样边界认错；框图能把这种错误提前暴露出来。

![AHB 接口框图](<./screenshots/任务036_AMBA总线介绍5/task36_06_interface_blocks_44m45s.jpg>)

视觉核验/看图要点/漏看后果：44:45-45:00，这张图的教学职责是把 master、arbiter、decoder、slave 四类接口合在一张检查表里。按角色分组读：master 发请求和地址控制，arbiter 发 grant 和 master 编号，decoder 发 `HSELx`，slave 发 `HREADY/HRESP/HRDATA/HSPLITx`。漏看这张框图，顶层集成时最容易出现“线都接了，但驱动端和采样端反了”的错误。

一个 AHB slave 设计至少要回答这些问题：

| 问题 | 设计上要落到哪里 |
|---|---|
| 我什么时候被访问？ | `HSEL && HREADYIN && HTRANS[1]` |
| 我什么时候接受新地址？ | `HREADYIN=1` 的有效边界 |
| 我什么时候返回数据？ | 读传输的数据阶段 |
| 我是否可能等待？ | `HREADYOUT` 是否可能拉低 |
| 我是否可能报错？ | `HRESP` 是否只返回 OKAY，还是支持 ERROR/RETRY/SPLIT |
| 我是否需要知道 master 编号？ | 是否支持 SPLIT、lock 或多 master 相关策略 |

对一个简单 SRAM slave，很多答案会很简单：不支持 SPLIT，通常 `HRESP=OKAY`，单周期时 `HREADYOUT=1`。但“简单”不是“不接线不思考”，而是要能明确说出为什么可以固定，以及固定后验证要看什么。

## 最小闭环：从 request 到移交完成

本章最小闭环如下：

```text
1. master 拉起 HBUSREQx，必要时拉起 HLOCKx
2. arbiter 根据请求、优先级、lock、burst、SPLIT 状态计算 HGRANTx
3. master 只有在 HGRANTx && HREADY 的边界后才能接管地址/控制
4. slave 通过 HREADYOUT 表示当前传输能否推进
5. HREADY 汇总后作为 master、slave、arbiter 的共同节拍边界
6. 总线交接时，旧 master 的最后数据阶段可能与新 master 的第一地址阶段重叠
7. SPLIT 通过 slave 记录 master 编号，再用 HSPLITx 恢复仲裁资格
```

## 可复现波形读法：四个场景

这四个场景能把仲裁机制从概念变成可检查行为。读波形时不要先盯数据值，先确认“谁有资格驱动地址”和“当前 transfer 是否完成”。

| 场景 | 刺激 | 必看信号 | 通过口径 |
|---|---|---|---|
| 无等待授权 | 单个 master 请求，slave 单周期 ready | `HBUSREQx`、`HGRANTx`、`HREADY`、`HADDR` | `HGRANTx && HREADY` 后，新 master 下一地址阶段有效 |
| grant 早到但等待 | 旧 transfer 拉低 `HREADY`，同时新 master 被 grant | `HGRANTx`、`HREADY`、地址 mux 输出 | `HREADY=0` 期间系统地址/控制不切到新 transfer |
| burst 中切换 | M1 固定 burst，M2 中途请求 | `HBURST`、`HTRANS`、`HREADY`、`HGRANTM1/M2` | arbiter 在 burst 允许边界切换，不破坏已进入流水线的 beat |
| SPLIT 恢复 | M0 访问 S2 被 split，S2 后续恢复 | `HRESP`、`HMASTER`、`HSPLIT2[0]`、`HGRANT0` | split 后 M0 暂停参与；`HSPLIT2[0]` 有效后才恢复被 grant 的资格 |

最小调试顺序：先确认 `HREADY` 是否允许相位推进，再确认 `HMASTER` 或 master mux 选择，再确认数据阶段归属。这个顺序能避免把“授权变化”误当成“数据归属变化”。

## 常见误区和失败信号

- 只看 `HGRANT` 不看 `HREADY`：会把“被授权”误读成“已经接管”，波形上容易提前一拍。
- `HREADY=0` 时更新地址寄存器：slave 没承认上一拍完成，内部却推进了状态，读写会错位。
- 把 `HREADYOUT` 当成只给 master 的信号：它还会汇总成 `HREADYIN` 反馈给所有 slave，控制全局流水线。
- 认为失去 grant 后旧 master 不能再有任何动作：流水线里的最后数据阶段仍然可能属于旧 master。
- 不区分 `HGRANTx` 和 `HMASTER`：前者通知各 master，后者选择系统总线上哪一路地址/控制有效。
- SPLIT 后不记录 master 编号：恢复时 arbiter 不知道该恢复谁，复杂交接场景下会出错。
- default grant 时不输出 `HTRANS=IDLE`：地址总线上的无意义电平可能被误当成真实访问。

## 自测题

1. 为什么 `HGRANTx=1` 不能单独说明 master 已经接管总线？
2. `HREADYOUT` 和 `HREADYIN` 分别站在哪个角度命名？
3. 总线从 M1 移交到 M2 时，为什么 M1 还可能完成最后一个数据阶段？
4. `HMASTER` 在系统互连中起什么作用？为什么只给每个 master 一个 `HGRANTx` 还不够？
5. 固定长度 burst 为什么不一定要持续拉高 request？未定长 INCR 为什么通常要持续请求？
6. `HSPLITx[15:0]` 中的 `x` 和 16 bit 位图分别表示什么？
7. 一个简单 AHB SRAM slave 可以固定 `HRESP=OKAY` 吗？前提是什么？
8. 为什么 AHB slave 的新访问条件里通常要包含 `HREADYIN`？
9. 如果 M2 的地址阶段和 M1 的数据阶段出现在同一拍，应该如何判定这拍属于谁？

## 自测参考答案与判分点

1. 还需要 `HREADY=1`。grant 只是 arbiter 的授权，`HREADY=1` 才表示当前传输完成、流水线允许切换。
2. `HREADYOUT` 是某个 slave 对外声明自己是否完成；`HREADYIN` 是汇总后的全局 ready，作为 slave 采样新访问的输入条件。
3. AHB 地址阶段和数据阶段错一拍，M2 开始第一地址阶段时，M1 的上一地址对应的数据阶段仍可完成。
4. `HMASTER` 像 master mux 的选择端，决定哪一路 master 地址/控制进入全局总线；`HGRANTx` 只是分别通知 master 是否被授权。
5. 固定长度 burst 的拍数由 `HBURST` 提前说明，arbiter 可以知道维持多久；未定长 INCR 没有固定拍数，master 要持续表明自己还需要总线。
6. `x` 表示发出 SPLIT 恢复信息的 slave 编号，`[15:0]` 表示最多 16 个 master 中哪些可以恢复仲裁资格。
7. 可以，但前提是地址译码已经保证只把合法 SRAM 地址送进来，SRAM 能单周期响应，不支持错误、重试、SPLIT 等异常路径；测试里仍要证明合法访问不会等待或报错。
8. 因为 `HREADYIN` 是全局流水线放行条件；它为 0 时，本 slave 即使看到 `HSEL` 和非空 `HTRANS`，也不能把当前总线值当作新的已接受访问。判分点：必须提到 wait state、地址/控制保持、内部状态不提前推进。
9. 地址阶段按当前 master mux 或 `HMASTER` 判给 M2，数据阶段仍按上一拍地址对应的 transfer 判给 M1。判分点：必须区分地址相位和数据相位，不能用“同一拍只能属于一个 master”回答。

